
T2038 000:466 SEGGER J-Link V4.90 Log File (0000ms, 0262ms total)
T2038 000:466 DLL Compiled: Jul 28 2014 10:35:20 (0000ms, 0262ms total)
T2038 000:466 Logging started @ 2016-11-16 19:08 (0000ms, 0262ms total)
T2038 000:466 JLINK_SetWarnOutHandler(...) (0000ms, 0262ms total)
T2038 000:466 JLINK_OpenEx(...)
Firmware: J-Link ARM V8 compiled Nov 28 2014 13:44:46
Hardware: V8.00
S/N: 286370559
Feature(s): RDI,FlashDL,FlashBP,JFlash  returns O.K. (0263ms, 0525ms total)
T2038 000:729 JLINK_SetErrorOutHandler(...) (0000ms, 0525ms total)
T2038 000:729 JLINK_ExecCommand("ProjectFile = "C:\Users\peng02.li\Desktop\最新程序--主程序框架的编写11-10\MDK-ARM\JLinkSettings.ini"", ...)Device "UNSPECIFIED" selected (0 KB flash, 0 KB RAM).  returns 0x00 (0003ms, 0528ms total)
T2038 000:734 JLINK_ExecCommand("Device = STM32F429IG", ...)Device "STM32F429IG" selected (1024 KB flash, 192 KB RAM).  returns 0x00 (0003ms, 0531ms total)
T2038 000:737 JLINK_ExecCommand("DisableConnectionTimeout", ...)  returns 0x01 (0000ms, 0531ms total)
T2038 000:737 JLINK_GetHardwareVersion()  returns 0x13880 (0000ms, 0531ms total)
T2038 000:737 JLINK_GetDLLVersion()  returns 49000 (0000ms, 0531ms total)
T2038 000:737 JLINK_GetFirmwareString(...) (0000ms, 0531ms total)
T2038 000:742 JLINK_GetDLLVersion()  returns 49000 (0000ms, 0531ms total)
T2038 000:742 JLINK_GetCompileDateTime() (0000ms, 0531ms total)
T2038 000:743 JLINK_GetFirmwareString(...) (0000ms, 0531ms total)
T2038 000:745 JLINK_GetHardwareVersion()  returns 0x13880 (0000ms, 0531ms total)
T2038 000:751 JLINK_TIF_Select(JLINKARM_TIF_JTAG)  returns 0x00 (0003ms, 0534ms total)
T2038 000:754 JLINK_SetSpeed(1000) (0001ms, 0535ms total)
T2038 000:755 JLINK_GetIdData(...) >0x2F8 JTAG>Could not measure total IR len. TDO is constant high. >0x30 JTAG>STM32 (connect): Can not attach to CPU. Trying connect under reset. >0x2F8 JTAG>TotalIRLen = 9, IRPrint = 0x0011 >0x30 JTAG> >0x210 JTAG> >0x40 JTAG> >0x40 JTAG> >0x40 JTAG> >0x30 JTAG> >0x40 JTAG> >0x40 JTAG> >0x40 JTAG> >0x40 JTAG> >0x40 JTAG> >0x40 JTAG> >0x40 JTAG> >0x40 JTAG> >0x40 JTAG> >0x40 JTAG> >0x40 JTAG> >0x40 JTAG> >0x40 JTAG> >0x40 JTAG> >0x40 JTAG> >0x40 JTAG> >0x40 JTAG>
 >0x40 JTAG> >0x40 JTAG> >0x40 JTAG> >0x40 JTAG> >0x2F8 JTAG>TotalIRLen = 9, IRPrint = 0x0011 >0x30 JTAG> >0x210 JTAG> >0x70 JTAG> >0x40 JTAG> >0x40 JTAG> >0x40 JTAG> >0x50 JTAG> >0x80 JTAG> >0x40 JTAG> >0x30 JTAG> >0x40 JTAG> >0x40 JTAG> >0x30 JTAG> >0x40 JTAG> >0x50 JTAG>Found Cortex-M4 r0p1, Little endian. -- CPU_WriteMem(4 bytes @ 0xE0002000) -- CPU_ReadMem(4 bytes @ 0xE000EDF0) -- CPU_ReadMem(4 bytes @ 0xE0002000)FPUnit: 6 code (BP) slots and 2 literal slots -- CPU_ReadMem(4 bytes @ 0xE000EDFC)
 -- CPU_ReadMem(4 bytes @ 0xE0001000) -- CPU_WriteMem(4 bytes @ 0xE0001000) -- CPU_ReadMem(4 bytes @ 0xE00FF010)TPIU fitted. -- CPU_ReadMem(4 bytes @ 0xE00FF014)ETM fitted. -- CPU_ReadMem(4 bytes @ 0xE00FF018) ScanLen=9 NumDevices=2 aId[0]=0x4BA00477 aIrRead[0]=0 aScanLen[0]=0 aScanRead[0]=0 (0167ms, 0702ms total)
T2038 000:922 JLINK_JTAG_GetDeviceID(DeviceIndex = 0)  returns 0x4BA00477 (0000ms, 0702ms total)
T2038 000:922 JLINK_JTAG_GetDeviceInfo(DeviceIndex = 0)  returns 0x00 (0000ms, 0702ms total)
T2038 000:922 JLINK_JTAG_GetDeviceID(DeviceIndex = 1)  returns 0x6419041 (0000ms, 0702ms total)
T2038 000:922 JLINK_JTAG_GetDeviceInfo(DeviceIndex = 1)  returns 0x00 (0000ms, 0702ms total)
T2038 000:922 JLINK_GetDLLVersion()  returns 49000 (0000ms, 0702ms total)
T2038 000:922 JLINK_CORE_GetFound()  returns 0xE0000FF (0000ms, 0702ms total)
T2038 000:924 JLINK_ReadMem (0xE00FF000, 0x0020 Bytes, ...) -- CPU is running -- CPU_ReadMem(32 bytes @ 0xE00FF000) - Data: 03 F0 F0 FF 03 20 F0 FF 03 30 F0 FF 03 10 F0 FF ...  returns 0x00 (0001ms, 0703ms total)
T2038 000:925 JLINK_ReadMem (0xE000EFF0, 0x0010 Bytes, ...) -- CPU is running -- CPU_ReadMem(16 bytes @ 0xE000EFF0) - Data: 0D 00 00 00 E0 00 00 00 05 00 00 00 B1 00 00 00  returns 0x00 (0002ms, 0705ms total)
T2038 000:927 JLINK_ReadMem (0xE000EFD0, 0x0020 Bytes, ...) -- CPU is running -- CPU_ReadMem(32 bytes @ 0xE000EFD0) - Data: 04 00 00 00 00 00 00 00 00 00 00 00 00 00 00 00 ...  returns 0x00 (0001ms, 0706ms total)
T2038 000:929 JLINK_ReadMem (0xE0001FF0, 0x0010 Bytes, ...) -- CPU is running -- CPU_ReadMem(16 bytes @ 0xE0001FF0) - Data: 0D 00 00 00 E0 00 00 00 05 00 00 00 B1 00 00 00  returns 0x00 (0001ms, 0707ms total)
T2038 000:930 JLINK_ReadMem (0xE0001FD0, 0x0020 Bytes, ...) -- CPU is running -- CPU_ReadMem(32 bytes @ 0xE0001FD0) - Data: 04 00 00 00 00 00 00 00 00 00 00 00 00 00 00 00 ...  returns 0x00 (0001ms, 0708ms total)
T2038 000:931 JLINK_ReadMem (0xE0002FF0, 0x0010 Bytes, ...) -- CPU is running -- CPU_ReadMem(16 bytes @ 0xE0002FF0) - Data: 0D 00 00 00 E0 00 00 00 05 00 00 00 B1 00 00 00  returns 0x00 (0002ms, 0710ms total)
T2038 000:933 JLINK_ReadMem (0xE0002FD0, 0x0020 Bytes, ...) -- CPU is running -- CPU_ReadMem(32 bytes @ 0xE0002FD0) - Data: 04 00 00 00 00 00 00 00 00 00 00 00 00 00 00 00 ...  returns 0x00 (0002ms, 0712ms total)
T2038 000:935 JLINK_ReadMem (0xE0000FF0, 0x0010 Bytes, ...) -- CPU is running -- CPU_ReadMem(16 bytes @ 0xE0000FF0) - Data: 0D 00 00 00 E0 00 00 00 05 00 00 00 B1 00 00 00  returns 0x00 (0001ms, 0713ms total)
T2038 000:936 JLINK_ReadMem (0xE0000FD0, 0x0020 Bytes, ...) -- CPU is running -- CPU_ReadMem(32 bytes @ 0xE0000FD0) - Data: 04 00 00 00 00 00 00 00 00 00 00 00 00 00 00 00 ...  returns 0x00 (0002ms, 0715ms total)
T2038 000:938 JLINK_ReadMem (0xE0040FF0, 0x0010 Bytes, ...) -- CPU is running -- CPU_ReadMem(16 bytes @ 0xE0040FF0) - Data: 0D 00 00 00 90 00 00 00 05 00 00 00 B1 00 00 00  returns 0x00 (0001ms, 0716ms total)
T2038 000:939 JLINK_ReadMem (0xE0040FD0, 0x0020 Bytes, ...) -- CPU is running -- CPU_ReadMem(32 bytes @ 0xE0040FD0) - Data: 04 00 00 00 00 00 00 00 00 00 00 00 00 00 00 00 ...  returns 0x00 (0002ms, 0718ms total)
T2038 000:941 JLINK_ReadMem (0xE0041FF0, 0x0010 Bytes, ...) -- CPU is running -- CPU_ReadMem(16 bytes @ 0xE0041FF0) - Data: 0D 00 00 00 90 00 00 00 05 00 00 00 B1 00 00 00  returns 0x00 (0002ms, 0720ms total)
T2038 000:943 JLINK_ReadMem (0xE0041FD0, 0x0020 Bytes, ...) -- CPU is running -- CPU_ReadMem(32 bytes @ 0xE0041FD0) - Data: 04 00 00 00 00 00 00 00 00 00 00 00 00 00 00 00 ...  returns 0x00 (0001ms, 0721ms total)
T2038 000:944 JLINK_ReadMemU32(0xE000EF40, 0x0001 Items, ...) -- CPU is running -- CPU_ReadMem(4 bytes @ 0xE000EF40) - Data: 21 00 11 10  returns 0x01 (0002ms, 0723ms total)
T2038 000:946 JLINK_ReadMemU32(0xE000EF44, 0x0001 Items, ...) -- CPU is running -- CPU_ReadMem(4 bytes @ 0xE000EF44) - Data: 11 00 00 11  returns 0x01 (0001ms, 0724ms total)
T2038 000:947 JLINK_ReadMemU32(0xE000ED00, 0x0001 Items, ...) -- CPU is running -- CPU_ReadMem(4 bytes @ 0xE000ED00) - Data: 41 C2 0F 41  returns 0x01 (0001ms, 0725ms total)
T2038 000:948 JLINK_SetResetType(JLINKARM_RESET_TYPE_NORMAL)  returns JLINKARM_RESET_TYPE_NORMAL (0000ms, 0725ms total)
T2038 000:948 JLINK_Reset() -- CPU is running -- CPU_WriteMem(4 bytes @ 0xE000EDF0) -- CPU is running -- CPU_WriteMem(4 bytes @ 0xE000EDFC) -- CPU is running -- CPU_WriteMem(4 bytes @ 0xE000ED0C) -- CPU is running -- CPU_ReadMem(4 bytes @ 0xE000EDF0) -- CPU is running -- CPU_ReadMem(4 bytes @ 0xE000EDF0) -- CPU is running -- CPU_WriteMem(4 bytes @ 0xE000EDF0) -- CPU is running -- CPU_WriteMem(4 bytes @ 0xE000EDFC) -- CPU is running -- CPU_ReadMem(4 bytes @ 0xE000EDF0) >0x80 JTAG> >0x40 JTAG> >0x30 JTAG>
 >0x40 JTAG> >0x50 JTAG> >0x40 JTAG> -- CPU_WriteMem(4 bytes @ 0xE000EDFC) -- CPU_WriteMem(4 bytes @ 0xE0001028) -- CPU_WriteMem(4 bytes @ 0xE0001038) -- CPU_WriteMem(4 bytes @ 0xE0001048) -- CPU_WriteMem(4 bytes @ 0xE0001058) -- CPU_WriteMem(4 bytes @ 0xE0002000) -- CPU_ReadMem(4 bytes @ 0xE000EDFC) -- CPU_ReadMem(4 bytes @ 0xE0001000) (0040ms, 0765ms total)
T2038 000:988 JLINK_Halt()  returns 0x00 (0000ms, 0765ms total)
T2038 000:988 JLINK_IsHalted()  returns TRUE (0000ms, 0765ms total)
T2038 000:988 JLINK_ReadMemU32(0xE000EDF0, 0x0001 Items, ...) -- CPU_ReadMem(4 bytes @ 0xE000EDF0) - Data: 03 00 03 00  returns 0x01 (0002ms, 0767ms total)
T2038 000:990 JLINK_WriteU32(0xE000EDF0, 0xA05F0003) -- CPU_WriteMem(4 bytes @ 0xE000EDF0)  returns 0x00 (0001ms, 0768ms total)
T2038 000:991 JLINK_WriteU32(0xE000EDFC, 0x01000000) -- CPU_WriteMem(4 bytes @ 0xE000EDFC)  returns 0x00 (0001ms, 0769ms total)
T2038 000:998 JLINK_GetHWStatus(...)  returns 0x00 (0001ms, 0770ms total)
T2038 001:003 JLINK_GetNumBPUnits(Type = 0xFFFFFF00)  returns 0x06 (0001ms, 0771ms total)
T2038 001:004 JLINK_GetNumBPUnits(Type = 0xF0)  returns 0x2000 (0000ms, 0771ms total)
T2038 001:004 JLINK_GetNumWPUnits()  returns 0x04 (0000ms, 0771ms total)
T2038 001:008 JLINK_GetSpeed()  returns 0x3E8 (0000ms, 0771ms total)
T2038 001:011 JLINK_ReadMemU32(0xE000E004, 0x0001 Items, ...) -- CPU_ReadMem(4 bytes @ 0xE000E004) - Data: 02 00 00 00  returns 0x01 (0002ms, 0773ms total)
T2038 001:013 JLINK_ReadMemU32(0xE000E004, 0x0001 Items, ...) -- CPU_ReadMem(4 bytes @ 0xE000E004) - Data: 02 00 00 00  returns 0x01 (0001ms, 0774ms total)
T2038 001:014 JLINK_WriteMem(0xE0001000, 0x001C Bytes, ...) - Data: 01 00 00 00 00 00 00 00 00 00 00 00 00 00 00 00 ... -- CPU_WriteMem(28 bytes @ 0xE0001000)  returns 0x1C (0001ms, 0775ms total)
T2038 001:015 JLINK_ReadMem (0xE0001000, 0x001C Bytes, ...) -- CPU_ReadMem(28 bytes @ 0xE0001000) - Data: 01 00 00 40 00 00 00 00 00 00 00 00 00 00 00 00 ...  returns 0x00 (0002ms, 0777ms total)
T2038 001:017 JLINK_Halt()  returns 0x00 (0000ms, 0777ms total)
T2038 001:017 JLINK_IsHalted()  returns TRUE (0000ms, 0777ms total)
T2038 001:018 JLINK_WriteMem(0x20000000, 0x0180 Bytes, ...) - Data: 00 BE 0A E0 0D 78 2D 06 68 40 08 24 40 00 00 D3 ... -- CPU_WriteMem(384 bytes @ 0x20000000)  returns 0x180 (0006ms, 0783ms total)
T2038 001:024 JLINK_WriteReg(R0, 0x08000000)  returns 0x00 (0000ms, 0783ms total)
T2038 001:024 JLINK_WriteReg(R1, 0x00B71B00)  returns 0x00 (0000ms, 0783ms total)
T2038 001:024 JLINK_WriteReg(R2, 0x00000001)  returns 0x00 (0000ms, 0783ms total)
T2038 001:024 JLINK_WriteReg(R3, 0x00000000)  returns 0x00 (0000ms, 0783ms total)
T2038 001:024 JLINK_WriteReg(R4, 0x00000000)  returns 0x00 (0000ms, 0783ms total)
T2038 001:024 JLINK_WriteReg(R5, 0x00000000)  returns 0x00 (0000ms, 0783ms total)
T2038 001:024 JLINK_WriteReg(R6, 0x00000000)  returns 0x00 (0000ms, 0783ms total)
T2038 001:024 JLINK_WriteReg(R7, 0x00000000)  returns 0x00 (0000ms, 0783ms total)
T2038 001:024 JLINK_WriteReg(R8, 0x00000000)  returns 0x00 (0000ms, 0783ms total)
T2038 001:024 JLINK_WriteReg(R9, 0x2000017C)  returns 0x00 (0000ms, 0783ms total)
T2038 001:024 JLINK_WriteReg(R10, 0x00000000)  returns 0x00 (0000ms, 0783ms total)
T2038 001:024 JLINK_WriteReg(R11, 0x00000000)  returns 0x00 (0000ms, 0783ms total)
T2038 001:024 JLINK_WriteReg(R12, 0x00000000)  returns 0x00 (0000ms, 0783ms total)
T2038 001:024 JLINK_WriteReg(R13 (SP), 0x20001000)  returns 0x00 (0000ms, 0783ms total)
T2038 001:024 JLINK_WriteReg(R14, 0x20000001)  returns 0x00 (0000ms, 0783ms total)
T2038 001:024 JLINK_WriteReg(R15 (PC), 0x20000054)  returns 0x00 (0000ms, 0783ms total)
T2038 001:024 JLINK_WriteReg(XPSR, 0x01000000)  returns 0x00 (0000ms, 0783ms total)
T2038 001:024 JLINK_WriteReg(MSP, 0x20001000)  returns 0x00 (0000ms, 0783ms total)
T2038 001:024 JLINK_WriteReg(PSP, 0x20001000)  returns 0x00 (0000ms, 0783ms total)
T2038 001:024 JLINK_WriteReg(CFBP, 0x00000000)  returns 0x00 (0000ms, 0783ms total)
T2038 001:024 JLINK_SetBPEx(Addr = 0x20000000, Type = 0xFFFFFFF2) -- CPU_ReadMem(2 bytes @ 0x20000000)  returns 0x00000001 (0001ms, 0784ms total)
T2038 001:025 JLINK_Go() -- CPU_WriteMem(2 bytes @ 0x20000000) -- CPU_WriteMem(4 bytes @ 0xE0002008) -- CPU_WriteMem(4 bytes @ 0xE000200C) -- CPU_WriteMem(4 bytes @ 0xE0002010) -- CPU_WriteMem(4 bytes @ 0xE0002014) -- CPU_WriteMem(4 bytes @ 0xE0002018) -- CPU_WriteMem(4 bytes @ 0xE000201C) -- CPU_WriteMem(4 bytes @ 0xE0001004) (0012ms, 0796ms total)
T2038 001:037 JLINK_IsHalted() -- CPU_ReadMem(2 bytes @ 0x20000000)  returns TRUE (0009ms, 0805ms total)
T2038 001:046 JLINK_ReadReg(R15 (PC))  returns 0x20000000 (0000ms, 0796ms total)
T2038 001:046 JLINK_ClrBPEx(BPHandle = 0x00000001)  returns 0x00 (0000ms, 0796ms total)
T2038 001:046 JLINK_ReadReg(R0)  returns 0x00000000 (0000ms, 0796ms total)
T2038 001:046 JLINK_WriteReg(R0, 0x08000000)  returns 0x00 (0000ms, 0796ms total)
T2038 001:046 JLINK_WriteReg(R1, 0x00004000)  returns 0x00 (0001ms, 0797ms total)
T2038 001:047 JLINK_WriteReg(R2, 0x000000FF)  returns 0x00 (0000ms, 0797ms total)
T2038 001:047 JLINK_WriteReg(R3, 0x00000000)  returns 0x00 (0000ms, 0797ms total)
T2038 001:047 JLINK_WriteReg(R4, 0x00000000)  returns 0x00 (0000ms, 0797ms total)
T2038 001:047 JLINK_WriteReg(R5, 0x00000000)  returns 0x00 (0000ms, 0797ms total)
T2038 001:047 JLINK_WriteReg(R6, 0x00000000)  returns 0x00 (0000ms, 0797ms total)
T2038 001:047 JLINK_WriteReg(R7, 0x00000000)  returns 0x00 (0000ms, 0797ms total)
T2038 001:047 JLINK_WriteReg(R8, 0x00000000)  returns 0x00 (0000ms, 0797ms total)
T2038 001:047 JLINK_WriteReg(R9, 0x2000017C)  returns 0x00 (0000ms, 0797ms total)
T2038 001:047 JLINK_WriteReg(R10, 0x00000000)  returns 0x00 (0000ms, 0797ms total)
T2038 001:047 JLINK_WriteReg(R11, 0x00000000)  returns 0x00 (0000ms, 0797ms total)
T2038 001:047 JLINK_WriteReg(R12, 0x00000000)  returns 0x00 (0000ms, 0797ms total)
T2038 001:047 JLINK_WriteReg(R13 (SP), 0x20001000)  returns 0x00 (0000ms, 0797ms total)
T2038 001:047 JLINK_WriteReg(R14, 0x20000001)  returns 0x00 (0000ms, 0797ms total)
T2038 001:047 JLINK_WriteReg(R15 (PC), 0x20000020)  returns 0x00 (0000ms, 0797ms total)
T2038 001:047 JLINK_WriteReg(XPSR, 0x01000000)  returns 0x00 (0000ms, 0797ms total)
T2038 001:047 JLINK_WriteReg(MSP, 0x20001000)  returns 0x00 (0000ms, 0797ms total)
T2038 001:047 JLINK_WriteReg(PSP, 0x20001000)  returns 0x00 (0000ms, 0797ms total)
T2038 001:047 JLINK_WriteReg(CFBP, 0x00000000)  returns 0x00 (0000ms, 0797ms total)
T2038 001:047 JLINK_SetBPEx(Addr = 0x20000000, Type = 0xFFFFFFF2)  returns 0x00000002 (0000ms, 0797ms total)
T2038 001:047 JLINK_Go() (0002ms, 0799ms total)
T2038 001:049 JLINK_IsHalted() -- CPU_ReadMem(2 bytes @ 0x20000000)  returns TRUE (0009ms, 0808ms total)
T2038 001:058 JLINK_ReadReg(R15 (PC))  returns 0x20000000 (0000ms, 0799ms total)
T2038 001:058 JLINK_ClrBPEx(BPHandle = 0x00000002)  returns 0x00 (0000ms, 0799ms total)
T2038 001:058 JLINK_ReadReg(R0)  returns 0x00000001 (0000ms, 0799ms total)
T2038 001:058 JLINK_WriteReg(R0, 0x08000000)  returns 0x00 (0000ms, 0799ms total)
T2038 001:058 JLINK_WriteReg(R1, 0x00004000)  returns 0x00 (0000ms, 0799ms total)
T2038 001:058 JLINK_WriteReg(R2, 0x000000FF)  returns 0x00 (0000ms, 0799ms total)
T2038 001:058 JLINK_WriteReg(R3, 0x00000000)  returns 0x00 (0000ms, 0799ms total)
T2038 001:058 JLINK_WriteReg(R4, 0x00000000)  returns 0x00 (0000ms, 0799ms total)
T2038 001:058 JLINK_WriteReg(R5, 0x00000000)  returns 0x00 (0000ms, 0799ms total)
T2038 001:058 JLINK_WriteReg(R6, 0x00000000)  returns 0x00 (0000ms, 0799ms total)
T2038 001:058 JLINK_WriteReg(R7, 0x00000000)  returns 0x00 (0000ms, 0799ms total)
T2038 001:058 JLINK_WriteReg(R8, 0x00000000)  returns 0x00 (0000ms, 0799ms total)
T2038 001:058 JLINK_WriteReg(R9, 0x2000017C)  returns 0x00 (0000ms, 0799ms total)
T2038 001:058 JLINK_WriteReg(R10, 0x00000000)  returns 0x00 (0000ms, 0799ms total)
T2038 001:058 JLINK_WriteReg(R11, 0x00000000)  returns 0x00 (0000ms, 0799ms total)
T2038 001:058 JLINK_WriteReg(R12, 0x00000000)  returns 0x00 (0000ms, 0799ms total)
T2038 001:058 JLINK_WriteReg(R13 (SP), 0x20001000)  returns 0x00 (0000ms, 0799ms total)
T2038 001:058 JLINK_WriteReg(R14, 0x20000001)  returns 0x00 (0000ms, 0799ms total)
T2038 001:058 JLINK_WriteReg(R15 (PC), 0x200000BC)  returns 0x00 (0000ms, 0799ms total)
T2038 001:058 JLINK_WriteReg(XPSR, 0x01000000)  returns 0x00 (0000ms, 0799ms total)
T2038 001:058 JLINK_WriteReg(MSP, 0x20001000)  returns 0x00 (0000ms, 0799ms total)
T2038 001:058 JLINK_WriteReg(PSP, 0x20001000)  returns 0x00 (0000ms, 0799ms total)
T2038 001:058 JLINK_WriteReg(CFBP, 0x00000000)  returns 0x00 (0000ms, 0799ms total)
T2038 001:058 JLINK_SetBPEx(Addr = 0x20000000, Type = 0xFFFFFFF2)  returns 0x00000003 (0000ms, 0799ms total)
T2038 001:058 JLINK_Go() (0003ms, 0802ms total)
T2038 001:061 JLINK_IsHalted()  returns FALSE (0000ms, 0802ms total)
T2038 001:149 JLINK_IsHalted()  returns FALSE (0001ms, 0803ms total)
T2038 001:226 JLINK_IsHalted()  returns FALSE (0001ms, 0803ms total)
T2038 001:276 JLINK_IsHalted()  returns FALSE (0001ms, 0803ms total)
T2038 001:278 JLINK_IsHalted()  returns FALSE (0001ms, 0803ms total)
T2038 001:280 JLINK_IsHalted()  returns FALSE (0000ms, 0802ms total)
T2038 001:281 JLINK_IsHalted()  returns FALSE (0001ms, 0803ms total)
T2038 001:357 JLINK_IsHalted()  returns FALSE (0000ms, 0802ms total)
T2038 001:372 JLINK_IsHalted()  returns FALSE (0000ms, 0802ms total)
T2038 001:373 JLINK_IsHalted()  returns FALSE (0000ms, 0802ms total)
T2038 001:374 JLINK_IsHalted()  returns FALSE (0000ms, 0802ms total)
T2038 001:375 JLINK_IsHalted()  returns FALSE (0001ms, 0803ms total)
T2038 001:377 JLINK_IsHalted()  returns FALSE (0001ms, 0803ms total)
T2038 001:383 JLINK_IsHalted()  returns FALSE (0001ms, 0803ms total)
T2038 001:385 JLINK_IsHalted()  returns FALSE (0001ms, 0803ms total)
T2038 001:387 JLINK_IsHalted()  returns FALSE (0001ms, 0803ms total)
T2038 001:389 JLINK_IsHalted()  returns FALSE (0001ms, 0803ms total)
T2038 001:391 JLINK_IsHalted()  returns FALSE (0000ms, 0802ms total)
T2038 001:392 JLINK_IsHalted()  returns FALSE (0001ms, 0803ms total)
T2038 001:472 JLINK_IsHalted() -- CPU_ReadMem(2 bytes @ 0x20000000)  returns TRUE (0009ms, 0811ms total)
T2038 001:481 JLINK_ReadReg(R15 (PC))  returns 0x20000000 (0000ms, 0802ms total)
T2038 001:481 JLINK_ClrBPEx(BPHandle = 0x00000003)  returns 0x00 (0000ms, 0802ms total)
T2038 001:481 JLINK_ReadReg(R0)  returns 0x00000000 (0000ms, 0802ms total)
T2038 001:481 JLINK_WriteReg(R0, 0x00000001)  returns 0x00 (0000ms, 0802ms total)
T2038 001:481 JLINK_WriteReg(R1, 0x00004000)  returns 0x00 (0000ms, 0802ms total)
T2038 001:481 JLINK_WriteReg(R2, 0x000000FF)  returns 0x00 (0000ms, 0802ms total)
T2038 001:481 JLINK_WriteReg(R3, 0x00000000)  returns 0x00 (0000ms, 0802ms total)
T2038 001:481 JLINK_WriteReg(R4, 0x00000000)  returns 0x00 (0000ms, 0802ms total)
T2038 001:481 JLINK_WriteReg(R5, 0x00000000)  returns 0x00 (0000ms, 0802ms total)
T2038 001:481 JLINK_WriteReg(R6, 0x00000000)  returns 0x00 (0000ms, 0802ms total)
T2038 001:481 JLINK_WriteReg(R7, 0x00000000)  returns 0x00 (0000ms, 0802ms total)
T2038 001:481 JLINK_WriteReg(R8, 0x00000000)  returns 0x00 (0000ms, 0802ms total)
T2038 001:481 JLINK_WriteReg(R9, 0x2000017C)  returns 0x00 (0000ms, 0802ms total)
T2038 001:481 JLINK_WriteReg(R10, 0x00000000)  returns 0x00 (0000ms, 0802ms total)
T2038 001:481 JLINK_WriteReg(R11, 0x00000000)  returns 0x00 (0000ms, 0802ms total)
T2038 001:481 JLINK_WriteReg(R12, 0x00000000)  returns 0x00 (0000ms, 0802ms total)
T2038 001:481 JLINK_WriteReg(R13 (SP), 0x20001000)  returns 0x00 (0000ms, 0802ms total)
T2038 001:481 JLINK_WriteReg(R14, 0x20000001)  returns 0x00 (0000ms, 0802ms total)
T2038 001:481 JLINK_WriteReg(R15 (PC), 0x20000082)  returns 0x00 (0000ms, 0802ms total)
T2038 001:481 JLINK_WriteReg(XPSR, 0x01000000)  returns 0x00 (0000ms, 0802ms total)
T2038 001:481 JLINK_WriteReg(MSP, 0x20001000)  returns 0x00 (0000ms, 0802ms total)
T2038 001:481 JLINK_WriteReg(PSP, 0x20001000)  returns 0x00 (0000ms, 0802ms total)
T2038 001:481 JLINK_WriteReg(CFBP, 0x00000000)  returns 0x00 (0000ms, 0802ms total)
T2038 001:481 JLINK_SetBPEx(Addr = 0x20000000, Type = 0xFFFFFFF2)  returns 0x00000004 (0000ms, 0802ms total)
T2038 001:481 JLINK_Go() (0003ms, 0805ms total)
T2038 001:484 JLINK_IsHalted() -- CPU_ReadMem(2 bytes @ 0x20000000)  returns TRUE (0009ms, 0814ms total)
T2038 001:493 JLINK_ReadReg(R15 (PC))  returns 0x20000000 (0000ms, 0805ms total)
T2038 001:493 JLINK_ClrBPEx(BPHandle = 0x00000004)  returns 0x00 (0000ms, 0805ms total)
T2038 001:493 JLINK_ReadReg(R0)  returns 0x00000000 (0000ms, 0805ms total)
T2038 001:546 JLINK_WriteMem(0x20000000, 0x0180 Bytes, ...) - Data: 00 BE 0A E0 0D 78 2D 06 68 40 08 24 40 00 00 D3 ... -- CPU_WriteMem(384 bytes @ 0x20000000)  returns 0x180 (0006ms, 0811ms total)
T2038 001:552 JLINK_WriteReg(R0, 0x08000000)  returns 0x00 (0000ms, 0811ms total)
T2038 001:552 JLINK_WriteReg(R1, 0x00B71B00)  returns 0x00 (0000ms, 0811ms total)
T2038 001:552 JLINK_WriteReg(R2, 0x00000002)  returns 0x00 (0000ms, 0811ms total)
T2038 001:552 JLINK_WriteReg(R3, 0x00000000)  returns 0x00 (0000ms, 0811ms total)
T2038 001:552 JLINK_WriteReg(R4, 0x00000000)  returns 0x00 (0000ms, 0811ms total)
T2038 001:552 JLINK_WriteReg(R5, 0x00000000)  returns 0x00 (0000ms, 0811ms total)
T2038 001:552 JLINK_WriteReg(R6, 0x00000000)  returns 0x00 (0000ms, 0811ms total)
T2038 001:552 JLINK_WriteReg(R7, 0x00000000)  returns 0x00 (0000ms, 0811ms total)
T2038 001:552 JLINK_WriteReg(R8, 0x00000000)  returns 0x00 (0000ms, 0811ms total)
T2038 001:552 JLINK_WriteReg(R9, 0x2000017C)  returns 0x00 (0000ms, 0811ms total)
T2038 001:552 JLINK_WriteReg(R10, 0x00000000)  returns 0x00 (0000ms, 0811ms total)
T2038 001:552 JLINK_WriteReg(R11, 0x00000000)  returns 0x00 (0000ms, 0811ms total)
T2038 001:552 JLINK_WriteReg(R12, 0x00000000)  returns 0x00 (0000ms, 0811ms total)
T2038 001:552 JLINK_WriteReg(R13 (SP), 0x20001000)  returns 0x00 (0000ms, 0811ms total)
T2038 001:552 JLINK_WriteReg(R14, 0x20000001)  returns 0x00 (0000ms, 0811ms total)
T2038 001:552 JLINK_WriteReg(R15 (PC), 0x20000054)  returns 0x00 (0000ms, 0811ms total)
T2038 001:552 JLINK_WriteReg(XPSR, 0x01000000)  returns 0x00 (0000ms, 0811ms total)
T2038 001:552 JLINK_WriteReg(MSP, 0x20001000)  returns 0x00 (0000ms, 0811ms total)
T2038 001:552 JLINK_WriteReg(PSP, 0x20001000)  returns 0x00 (0000ms, 0811ms total)
T2038 001:552 JLINK_WriteReg(CFBP, 0x00000000)  returns 0x00 (0000ms, 0811ms total)
T2038 001:552 JLINK_SetBPEx(Addr = 0x20000000, Type = 0xFFFFFFF2) -- CPU_ReadMem(2 bytes @ 0x20000000)  returns 0x00000005 (0001ms, 0812ms total)
T2038 001:553 JLINK_Go() -- CPU_WriteMem(2 bytes @ 0x20000000) (0004ms, 0816ms total)
T2038 001:557 JLINK_IsHalted() -- CPU_ReadMem(2 bytes @ 0x20000000)  returns TRUE (0009ms, 0825ms total)
T2038 001:566 JLINK_ReadReg(R15 (PC))  returns 0x20000000 (0000ms, 0816ms total)
T2038 001:566 JLINK_ClrBPEx(BPHandle = 0x00000005)  returns 0x00 (0000ms, 0816ms total)
T2038 001:566 JLINK_ReadReg(R0)  returns 0x00000000 (0000ms, 0816ms total)
T2038 001:566 JLINK_WriteMem(0x20000180, 0x0400 Bytes, ...) - Data: 70 0C 00 20 C1 01 00 08 E9 2A 00 08 11 23 00 08 ... -- CPU_WriteMem(1024 bytes @ 0x20000180)  returns 0x400 (0013ms, 0829ms total)
T2038 001:579 JLINK_WriteReg(R0, 0x08000000)  returns 0x00 (0000ms, 0829ms total)
T2038 001:579 JLINK_WriteReg(R1, 0x00000400)  returns 0x00 (0000ms, 0829ms total)
T2038 001:579 JLINK_WriteReg(R2, 0x20000180)  returns 0x00 (0000ms, 0829ms total)
T2038 001:579 JLINK_WriteReg(R3, 0x00000000)  returns 0x00 (0000ms, 0829ms total)
T2038 001:579 JLINK_WriteReg(R4, 0x00000000)  returns 0x00 (0000ms, 0829ms total)
T2038 001:579 JLINK_WriteReg(R5, 0x00000000)  returns 0x00 (0000ms, 0829ms total)
T2038 001:579 JLINK_WriteReg(R6, 0x00000000)  returns 0x00 (0000ms, 0829ms total)
T2038 001:579 JLINK_WriteReg(R7, 0x00000000)  returns 0x00 (0000ms, 0829ms total)
T2038 001:579 JLINK_WriteReg(R8, 0x00000000)  returns 0x00 (0000ms, 0829ms total)
T2038 001:579 JLINK_WriteReg(R9, 0x2000017C)  returns 0x00 (0000ms, 0829ms total)
T2038 001:579 JLINK_WriteReg(R10, 0x00000000)  returns 0x00 (0000ms, 0829ms total)
T2038 001:579 JLINK_WriteReg(R11, 0x00000000)  returns 0x00 (0000ms, 0829ms total)
T2038 001:579 JLINK_WriteReg(R12, 0x00000000)  returns 0x00 (0000ms, 0829ms total)
T2038 001:579 JLINK_WriteReg(R13 (SP), 0x20001000)  returns 0x00 (0000ms, 0829ms total)
T2038 001:579 JLINK_WriteReg(R14, 0x20000001)  returns 0x00 (0000ms, 0829ms total)
T2038 001:579 JLINK_WriteReg(R15 (PC), 0x20000108)  returns 0x00 (0000ms, 0829ms total)
T2038 001:579 JLINK_WriteReg(XPSR, 0x01000000)  returns 0x00 (0000ms, 0829ms total)
T2038 001:579 JLINK_WriteReg(MSP, 0x20001000)  returns 0x00 (0000ms, 0829ms total)
T2038 001:579 JLINK_WriteReg(PSP, 0x20001000)  returns 0x00 (0000ms, 0829ms total)
T2038 001:579 JLINK_WriteReg(CFBP, 0x00000000)  returns 0x00 (0000ms, 0829ms total)
T2038 001:579 JLINK_SetBPEx(Addr = 0x20000000, Type = 0xFFFFFFF2)  returns 0x00000006 (0000ms, 0829ms total)
T2038 001:579 JLINK_Go() (0003ms, 0832ms total)
T2038 001:582 JLINK_IsHalted()  returns FALSE (0000ms, 0832ms total)
T2038 001:660 JLINK_IsHalted() -- CPU_ReadMem(2 bytes @ 0x20000000)  returns TRUE (0009ms, 0841ms total)
T2038 001:669 JLINK_ReadReg(R15 (PC))  returns 0x20000000 (0000ms, 0832ms total)
T2038 001:669 JLINK_ClrBPEx(BPHandle = 0x00000006)  returns 0x00 (0000ms, 0832ms total)
T2038 001:669 JLINK_ReadReg(R0)  returns 0x00000000 (0000ms, 0832ms total)
T2038 001:669 JLINK_WriteMem(0x20000180, 0x0400 Bytes, ...) - Data: 00 62 4A 60 01 68 4A 68 22 F4 60 42 4A 60 01 68 ... -- CPU_WriteMem(1024 bytes @ 0x20000180)  returns 0x400 (0013ms, 0845ms total)
T2038 001:682 JLINK_WriteReg(R0, 0x08000400)  returns 0x00 (0000ms, 0845ms total)
T2038 001:682 JLINK_WriteReg(R1, 0x00000400)  returns 0x00 (0000ms, 0845ms total)
T2038 001:682 JLINK_WriteReg(R2, 0x20000180)  returns 0x00 (0000ms, 0845ms total)
T2038 001:682 JLINK_WriteReg(R3, 0x00000000)  returns 0x00 (0000ms, 0845ms total)
T2038 001:682 JLINK_WriteReg(R4, 0x00000000)  returns 0x00 (0000ms, 0845ms total)
T2038 001:682 JLINK_WriteReg(R5, 0x00000000)  returns 0x00 (0000ms, 0845ms total)
T2038 001:682 JLINK_WriteReg(R6, 0x00000000)  returns 0x00 (0000ms, 0845ms total)
T2038 001:682 JLINK_WriteReg(R7, 0x00000000)  returns 0x00 (0000ms, 0845ms total)
T2038 001:682 JLINK_WriteReg(R8, 0x00000000)  returns 0x00 (0000ms, 0845ms total)
T2038 001:682 JLINK_WriteReg(R9, 0x2000017C)  returns 0x00 (0000ms, 0845ms total)
T2038 001:682 JLINK_WriteReg(R10, 0x00000000)  returns 0x00 (0000ms, 0845ms total)
T2038 001:682 JLINK_WriteReg(R11, 0x00000000)  returns 0x00 (0000ms, 0845ms total)
T2038 001:682 JLINK_WriteReg(R12, 0x00000000)  returns 0x00 (0000ms, 0845ms total)
T2038 001:682 JLINK_WriteReg(R13 (SP), 0x20001000)  returns 0x00 (0000ms, 0845ms total)
T2038 001:682 JLINK_WriteReg(R14, 0x20000001)  returns 0x00 (0000ms, 0845ms total)
T2038 001:682 JLINK_WriteReg(R15 (PC), 0x20000108)  returns 0x00 (0000ms, 0845ms total)
T2038 001:682 JLINK_WriteReg(XPSR, 0x01000000)  returns 0x00 (0000ms, 0845ms total)
T2038 001:682 JLINK_WriteReg(MSP, 0x20001000)  returns 0x00 (0000ms, 0845ms total)
T2038 001:682 JLINK_WriteReg(PSP, 0x20001000)  returns 0x00 (0000ms, 0845ms total)
T2038 001:682 JLINK_WriteReg(CFBP, 0x00000000)  returns 0x00 (0000ms, 0845ms total)
T2038 001:682 JLINK_SetBPEx(Addr = 0x20000000, Type = 0xFFFFFFF2)  returns 0x00000007 (0000ms, 0845ms total)
T2038 001:682 JLINK_Go() (0003ms, 0848ms total)
T2038 001:685 JLINK_IsHalted()  returns FALSE (0001ms, 0849ms total)
T2038 001:764 JLINK_IsHalted() -- CPU_ReadMem(2 bytes @ 0x20000000)  returns TRUE (0009ms, 0857ms total)
T2038 001:773 JLINK_ReadReg(R15 (PC))  returns 0x20000000 (0000ms, 0848ms total)
T2038 001:773 JLINK_ClrBPEx(BPHandle = 0x00000007)  returns 0x00 (0000ms, 0848ms total)
T2038 001:773 JLINK_ReadReg(R0)  returns 0x00000000 (0000ms, 0848ms total)
T2038 001:773 JLINK_WriteMem(0x20000180, 0x0400 Bytes, ...) - Data: 01 28 3E D1 08 21 20 46 00 F0 AE FE B0 BB 10 21 ... -- CPU_WriteMem(1024 bytes @ 0x20000180)  returns 0x400 (0013ms, 0861ms total)
T2038 001:786 JLINK_WriteReg(R0, 0x08000800)  returns 0x00 (0000ms, 0861ms total)
T2038 001:786 JLINK_WriteReg(R1, 0x00000400)  returns 0x00 (0000ms, 0861ms total)
T2038 001:786 JLINK_WriteReg(R2, 0x20000180)  returns 0x00 (0000ms, 0861ms total)
T2038 001:786 JLINK_WriteReg(R3, 0x00000000)  returns 0x00 (0000ms, 0861ms total)
T2038 001:786 JLINK_WriteReg(R4, 0x00000000)  returns 0x00 (0000ms, 0861ms total)
T2038 001:786 JLINK_WriteReg(R5, 0x00000000)  returns 0x00 (0000ms, 0861ms total)
T2038 001:786 JLINK_WriteReg(R6, 0x00000000)  returns 0x00 (0000ms, 0861ms total)
T2038 001:786 JLINK_WriteReg(R7, 0x00000000)  returns 0x00 (0000ms, 0861ms total)
T2038 001:786 JLINK_WriteReg(R8, 0x00000000)  returns 0x00 (0000ms, 0861ms total)
T2038 001:786 JLINK_WriteReg(R9, 0x2000017C)  returns 0x00 (0000ms, 0861ms total)
T2038 001:786 JLINK_WriteReg(R10, 0x00000000)  returns 0x00 (0000ms, 0861ms total)
T2038 001:786 JLINK_WriteReg(R11, 0x00000000)  returns 0x00 (0000ms, 0861ms total)
T2038 001:786 JLINK_WriteReg(R12, 0x00000000)  returns 0x00 (0000ms, 0861ms total)
T2038 001:786 JLINK_WriteReg(R13 (SP), 0x20001000)  returns 0x00 (0000ms, 0861ms total)
T2038 001:786 JLINK_WriteReg(R14, 0x20000001)  returns 0x00 (0000ms, 0861ms total)
T2038 001:786 JLINK_WriteReg(R15 (PC), 0x20000108)  returns 0x00 (0000ms, 0861ms total)
T2038 001:786 JLINK_WriteReg(XPSR, 0x01000000)  returns 0x00 (0000ms, 0861ms total)
T2038 001:786 JLINK_WriteReg(MSP, 0x20001000)  returns 0x00 (0000ms, 0861ms total)
T2038 001:786 JLINK_WriteReg(PSP, 0x20001000)  returns 0x00 (0000ms, 0861ms total)
T2038 001:786 JLINK_WriteReg(CFBP, 0x00000000)  returns 0x00 (0000ms, 0861ms total)
T2038 001:786 JLINK_SetBPEx(Addr = 0x20000000, Type = 0xFFFFFFF2)  returns 0x00000008 (0000ms, 0861ms total)
T2038 001:786 JLINK_Go() (0003ms, 0864ms total)
T2038 001:789 JLINK_IsHalted()  returns FALSE (0000ms, 0864ms total)
T2038 001:867 JLINK_IsHalted() -- CPU_ReadMem(2 bytes @ 0x20000000)  returns TRUE (0009ms, 0873ms total)
T2038 001:876 JLINK_ReadReg(R15 (PC))  returns 0x20000000 (0000ms, 0864ms total)
T2038 001:876 JLINK_ClrBPEx(BPHandle = 0x00000008)  returns 0x00 (0000ms, 0864ms total)
T2038 001:876 JLINK_ReadReg(R0)  returns 0x00000000 (0000ms, 0864ms total)
T2038 001:876 JLINK_WriteMem(0x20000180, 0x0400 Bytes, ...) - Data: AE DD BD E8 F0 87 00 00 3C 03 00 20 3C 00 00 20 ... -- CPU_WriteMem(1024 bytes @ 0x20000180)  returns 0x400 (0013ms, 0877ms total)
T2038 001:889 JLINK_WriteReg(R0, 0x08000C00)  returns 0x00 (0000ms, 0877ms total)
T2038 001:889 JLINK_WriteReg(R1, 0x00000400)  returns 0x00 (0000ms, 0877ms total)
T2038 001:889 JLINK_WriteReg(R2, 0x20000180)  returns 0x00 (0000ms, 0877ms total)
T2038 001:889 JLINK_WriteReg(R3, 0x00000000)  returns 0x00 (0000ms, 0877ms total)
T2038 001:889 JLINK_WriteReg(R4, 0x00000000)  returns 0x00 (0000ms, 0877ms total)
T2038 001:889 JLINK_WriteReg(R5, 0x00000000)  returns 0x00 (0000ms, 0877ms total)
T2038 001:889 JLINK_WriteReg(R6, 0x00000000)  returns 0x00 (0000ms, 0877ms total)
T2038 001:889 JLINK_WriteReg(R7, 0x00000000)  returns 0x00 (0000ms, 0877ms total)
T2038 001:889 JLINK_WriteReg(R8, 0x00000000)  returns 0x00 (0000ms, 0877ms total)
T2038 001:889 JLINK_WriteReg(R9, 0x2000017C)  returns 0x00 (0000ms, 0877ms total)
T2038 001:889 JLINK_WriteReg(R10, 0x00000000)  returns 0x00 (0000ms, 0877ms total)
T2038 001:889 JLINK_WriteReg(R11, 0x00000000)  returns 0x00 (0000ms, 0877ms total)
T2038 001:889 JLINK_WriteReg(R12, 0x00000000)  returns 0x00 (0000ms, 0877ms total)
T2038 001:889 JLINK_WriteReg(R13 (SP), 0x20001000)  returns 0x00 (0000ms, 0877ms total)
T2038 001:889 JLINK_WriteReg(R14, 0x20000001)  returns 0x00 (0000ms, 0877ms total)
T2038 001:889 JLINK_WriteReg(R15 (PC), 0x20000108)  returns 0x00 (0000ms, 0877ms total)
T2038 001:889 JLINK_WriteReg(XPSR, 0x01000000)  returns 0x00 (0000ms, 0877ms total)
T2038 001:889 JLINK_WriteReg(MSP, 0x20001000)  returns 0x00 (0000ms, 0877ms total)
T2038 001:889 JLINK_WriteReg(PSP, 0x20001000)  returns 0x00 (0000ms, 0877ms total)
T2038 001:889 JLINK_WriteReg(CFBP, 0x00000000)  returns 0x00 (0000ms, 0877ms total)
T2038 001:889 JLINK_SetBPEx(Addr = 0x20000000, Type = 0xFFFFFFF2)  returns 0x00000009 (0000ms, 0877ms total)
T2038 001:889 JLINK_Go() (0003ms, 0880ms total)
T2038 001:892 JLINK_IsHalted()  returns FALSE (0001ms, 0881ms total)
T2038 001:974 JLINK_IsHalted() -- CPU_ReadMem(2 bytes @ 0x20000000)  returns TRUE (0009ms, 0889ms total)
T2038 001:983 JLINK_ReadReg(R15 (PC))  returns 0x20000000 (0000ms, 0880ms total)
T2038 001:983 JLINK_ClrBPEx(BPHandle = 0x00000009)  returns 0x00 (0000ms, 0880ms total)
T2038 001:983 JLINK_ReadReg(R0)  returns 0x00000000 (0000ms, 0880ms total)
T2038 001:983 JLINK_WriteMem(0x20000180, 0x0400 Bytes, ...) - Data: 60 6C 20 F0 06 00 60 64 00 E0 61 64 84 F8 3C 10 ... -- CPU_WriteMem(1024 bytes @ 0x20000180)  returns 0x400 (0013ms, 0893ms total)
T2038 001:996 JLINK_WriteReg(R0, 0x08001000)  returns 0x00 (0000ms, 0893ms total)
T2038 001:996 JLINK_WriteReg(R1, 0x00000400)  returns 0x00 (0000ms, 0893ms total)
T2038 001:996 JLINK_WriteReg(R2, 0x20000180)  returns 0x00 (0000ms, 0893ms total)
T2038 001:996 JLINK_WriteReg(R3, 0x00000000)  returns 0x00 (0000ms, 0893ms total)
T2038 001:996 JLINK_WriteReg(R4, 0x00000000)  returns 0x00 (0000ms, 0893ms total)
T2038 001:996 JLINK_WriteReg(R5, 0x00000000)  returns 0x00 (0000ms, 0893ms total)
T2038 001:996 JLINK_WriteReg(R6, 0x00000000)  returns 0x00 (0000ms, 0893ms total)
T2038 001:996 JLINK_WriteReg(R7, 0x00000000)  returns 0x00 (0000ms, 0893ms total)
T2038 001:996 JLINK_WriteReg(R8, 0x00000000)  returns 0x00 (0000ms, 0893ms total)
T2038 001:996 JLINK_WriteReg(R9, 0x2000017C)  returns 0x00 (0000ms, 0893ms total)
T2038 001:996 JLINK_WriteReg(R10, 0x00000000)  returns 0x00 (0000ms, 0893ms total)
T2038 001:996 JLINK_WriteReg(R11, 0x00000000)  returns 0x00 (0000ms, 0893ms total)
T2038 001:996 JLINK_WriteReg(R12, 0x00000000)  returns 0x00 (0000ms, 0893ms total)
T2038 001:996 JLINK_WriteReg(R13 (SP), 0x20001000)  returns 0x00 (0000ms, 0893ms total)
T2038 001:996 JLINK_WriteReg(R14, 0x20000001)  returns 0x00 (0000ms, 0893ms total)
T2038 001:996 JLINK_WriteReg(R15 (PC), 0x20000108)  returns 0x00 (0000ms, 0893ms total)
T2038 001:996 JLINK_WriteReg(XPSR, 0x01000000)  returns 0x00 (0000ms, 0893ms total)
T2038 001:996 JLINK_WriteReg(MSP, 0x20001000)  returns 0x00 (0000ms, 0893ms total)
T2038 001:996 JLINK_WriteReg(PSP, 0x20001000)  returns 0x00 (0000ms, 0893ms total)
T2038 001:996 JLINK_WriteReg(CFBP, 0x00000000)  returns 0x00 (0000ms, 0893ms total)
T2038 001:996 JLINK_SetBPEx(Addr = 0x20000000, Type = 0xFFFFFFF2)  returns 0x0000000A (0000ms, 0893ms total)
T2038 001:996 JLINK_Go() (0003ms, 0896ms total)
T2038 001:999 JLINK_IsHalted()  returns FALSE (0001ms, 0897ms total)
T2038 002:078 JLINK_IsHalted() -- CPU_ReadMem(2 bytes @ 0x20000000)  returns TRUE (0009ms, 0905ms total)
T2038 002:087 JLINK_ReadReg(R15 (PC))  returns 0x20000000 (0000ms, 0896ms total)
T2038 002:087 JLINK_ClrBPEx(BPHandle = 0x0000000A)  returns 0x00 (0000ms, 0896ms total)
T2038 002:087 JLINK_ReadReg(R0)  returns 0x00000000 (0000ms, 0896ms total)
T2038 002:088 JLINK_WriteMem(0x20000180, 0x0400 Bytes, ...) - Data: 37 43 07 60 4E 68 01 2E 05 D0 02 2E 03 D0 11 2E ... -- CPU_WriteMem(1024 bytes @ 0x20000180)  returns 0x400 (0012ms, 0908ms total)
T2038 002:100 JLINK_WriteReg(R0, 0x08001400)  returns 0x00 (0000ms, 0908ms total)
T2038 002:100 JLINK_WriteReg(R1, 0x00000400)  returns 0x00 (0000ms, 0908ms total)
T2038 002:100 JLINK_WriteReg(R2, 0x20000180)  returns 0x00 (0000ms, 0908ms total)
T2038 002:100 JLINK_WriteReg(R3, 0x00000000)  returns 0x00 (0000ms, 0908ms total)
T2038 002:100 JLINK_WriteReg(R4, 0x00000000)  returns 0x00 (0000ms, 0908ms total)
T2038 002:100 JLINK_WriteReg(R5, 0x00000000)  returns 0x00 (0000ms, 0908ms total)
T2038 002:100 JLINK_WriteReg(R6, 0x00000000)  returns 0x00 (0000ms, 0908ms total)
T2038 002:100 JLINK_WriteReg(R7, 0x00000000)  returns 0x00 (0000ms, 0908ms total)
T2038 002:100 JLINK_WriteReg(R8, 0x00000000)  returns 0x00 (0000ms, 0908ms total)
T2038 002:100 JLINK_WriteReg(R9, 0x2000017C)  returns 0x00 (0000ms, 0908ms total)
T2038 002:100 JLINK_WriteReg(R10, 0x00000000)  returns 0x00 (0000ms, 0908ms total)
T2038 002:100 JLINK_WriteReg(R11, 0x00000000)  returns 0x00 (0000ms, 0908ms total)
T2038 002:100 JLINK_WriteReg(R12, 0x00000000)  returns 0x00 (0000ms, 0908ms total)
T2038 002:100 JLINK_WriteReg(R13 (SP), 0x20001000)  returns 0x00 (0000ms, 0908ms total)
T2038 002:100 JLINK_WriteReg(R14, 0x20000001)  returns 0x00 (0000ms, 0908ms total)
T2038 002:100 JLINK_WriteReg(R15 (PC), 0x20000108)  returns 0x00 (0000ms, 0908ms total)
T2038 002:100 JLINK_WriteReg(XPSR, 0x01000000)  returns 0x00 (0000ms, 0908ms total)
T2038 002:100 JLINK_WriteReg(MSP, 0x20001000)  returns 0x00 (0000ms, 0908ms total)
T2038 002:100 JLINK_WriteReg(PSP, 0x20001000)  returns 0x00 (0000ms, 0908ms total)
T2038 002:100 JLINK_WriteReg(CFBP, 0x00000000)  returns 0x00 (0001ms, 0909ms total)
T2038 002:101 JLINK_SetBPEx(Addr = 0x20000000, Type = 0xFFFFFFF2)  returns 0x0000000B (0000ms, 0909ms total)
T2038 002:101 JLINK_Go() (0002ms, 0911ms total)
T2038 002:103 JLINK_IsHalted()  returns FALSE (0001ms, 0912ms total)
T2038 002:180 JLINK_IsHalted() -- CPU_ReadMem(2 bytes @ 0x20000000)  returns TRUE (0009ms, 0920ms total)
T2038 002:189 JLINK_ReadReg(R15 (PC))  returns 0x20000000 (0000ms, 0911ms total)
T2038 002:189 JLINK_ClrBPEx(BPHandle = 0x0000000B)  returns 0x00 (0000ms, 0911ms total)
T2038 002:189 JLINK_ReadReg(R0)  returns 0x00000000 (0000ms, 0911ms total)
T2038 002:189 JLINK_WriteMem(0x20000180, 0x0400 Bytes, ...) - Data: 26 E0 00 BF FF F7 BA FE 81 1B 51 45 01 D9 18 E0 ... -- CPU_WriteMem(1024 bytes @ 0x20000180)  returns 0x400 (0013ms, 0924ms total)
T2038 002:202 JLINK_WriteReg(R0, 0x08001800)  returns 0x00 (0000ms, 0924ms total)
T2038 002:202 JLINK_WriteReg(R1, 0x00000400)  returns 0x00 (0000ms, 0924ms total)
T2038 002:202 JLINK_WriteReg(R2, 0x20000180)  returns 0x00 (0000ms, 0924ms total)
T2038 002:202 JLINK_WriteReg(R3, 0x00000000)  returns 0x00 (0000ms, 0924ms total)
T2038 002:202 JLINK_WriteReg(R4, 0x00000000)  returns 0x00 (0000ms, 0924ms total)
T2038 002:202 JLINK_WriteReg(R5, 0x00000000)  returns 0x00 (0000ms, 0924ms total)
T2038 002:202 JLINK_WriteReg(R6, 0x00000000)  returns 0x00 (0000ms, 0924ms total)
T2038 002:202 JLINK_WriteReg(R7, 0x00000000)  returns 0x00 (0000ms, 0924ms total)
T2038 002:202 JLINK_WriteReg(R8, 0x00000000)  returns 0x00 (0000ms, 0924ms total)
T2038 002:202 JLINK_WriteReg(R9, 0x2000017C)  returns 0x00 (0000ms, 0924ms total)
T2038 002:202 JLINK_WriteReg(R10, 0x00000000)  returns 0x00 (0000ms, 0924ms total)
T2038 002:202 JLINK_WriteReg(R11, 0x00000000)  returns 0x00 (0000ms, 0924ms total)
T2038 002:202 JLINK_WriteReg(R12, 0x00000000)  returns 0x00 (0000ms, 0924ms total)
T2038 002:202 JLINK_WriteReg(R13 (SP), 0x20001000)  returns 0x00 (0000ms, 0924ms total)
T2038 002:202 JLINK_WriteReg(R14, 0x20000001)  returns 0x00 (0000ms, 0924ms total)
T2038 002:202 JLINK_WriteReg(R15 (PC), 0x20000108)  returns 0x00 (0000ms, 0924ms total)
T2038 002:202 JLINK_WriteReg(XPSR, 0x01000000)  returns 0x00 (0000ms, 0924ms total)
T2038 002:202 JLINK_WriteReg(MSP, 0x20001000)  returns 0x00 (0000ms, 0924ms total)
T2038 002:202 JLINK_WriteReg(PSP, 0x20001000)  returns 0x00 (0000ms, 0924ms total)
T2038 002:202 JLINK_WriteReg(CFBP, 0x00000000)  returns 0x00 (0000ms, 0924ms total)
T2038 002:202 JLINK_SetBPEx(Addr = 0x20000000, Type = 0xFFFFFFF2)  returns 0x0000000C (0000ms, 0924ms total)
T2038 002:202 JLINK_Go() (0003ms, 0927ms total)
T2038 002:205 JLINK_IsHalted()  returns FALSE (0001ms, 0928ms total)
T2038 002:282 JLINK_IsHalted() -- CPU_ReadMem(2 bytes @ 0x20000000)  returns TRUE (0009ms, 0936ms total)
T2038 002:291 JLINK_ReadReg(R15 (PC))  returns 0x20000000 (0000ms, 0927ms total)
T2038 002:291 JLINK_ClrBPEx(BPHandle = 0x0000000C)  returns 0x00 (0000ms, 0927ms total)
T2038 002:291 JLINK_ReadReg(R0)  returns 0x00000000 (0000ms, 0927ms total)
T2038 002:291 JLINK_WriteMem(0x20000180, 0x0400 Bytes, ...) - Data: A2 F2 61 6A B2 FA 82 F2 91 40 A2 6A 4F F0 FF 33 ... -- CPU_WriteMem(1024 bytes @ 0x20000180)  returns 0x400 (0013ms, 0940ms total)
T2038 002:304 JLINK_WriteReg(R0, 0x08001C00)  returns 0x00 (0000ms, 0940ms total)
T2038 002:304 JLINK_WriteReg(R1, 0x00000400)  returns 0x00 (0000ms, 0940ms total)
T2038 002:304 JLINK_WriteReg(R2, 0x20000180)  returns 0x00 (0000ms, 0940ms total)
T2038 002:304 JLINK_WriteReg(R3, 0x00000000)  returns 0x00 (0000ms, 0940ms total)
T2038 002:304 JLINK_WriteReg(R4, 0x00000000)  returns 0x00 (0000ms, 0940ms total)
T2038 002:304 JLINK_WriteReg(R5, 0x00000000)  returns 0x00 (0000ms, 0940ms total)
T2038 002:304 JLINK_WriteReg(R6, 0x00000000)  returns 0x00 (0000ms, 0940ms total)
T2038 002:304 JLINK_WriteReg(R7, 0x00000000)  returns 0x00 (0000ms, 0940ms total)
T2038 002:304 JLINK_WriteReg(R8, 0x00000000)  returns 0x00 (0000ms, 0940ms total)
T2038 002:304 JLINK_WriteReg(R9, 0x2000017C)  returns 0x00 (0000ms, 0940ms total)
T2038 002:304 JLINK_WriteReg(R10, 0x00000000)  returns 0x00 (0000ms, 0940ms total)
T2038 002:304 JLINK_WriteReg(R11, 0x00000000)  returns 0x00 (0000ms, 0940ms total)
T2038 002:304 JLINK_WriteReg(R12, 0x00000000)  returns 0x00 (0000ms, 0940ms total)
T2038 002:304 JLINK_WriteReg(R13 (SP), 0x20001000)  returns 0x00 (0000ms, 0940ms total)
T2038 002:304 JLINK_WriteReg(R14, 0x20000001)  returns 0x00 (0000ms, 0940ms total)
T2038 002:304 JLINK_WriteReg(R15 (PC), 0x20000108)  returns 0x00 (0000ms, 0940ms total)
T2038 002:304 JLINK_WriteReg(XPSR, 0x01000000)  returns 0x00 (0000ms, 0940ms total)
T2038 002:304 JLINK_WriteReg(MSP, 0x20001000)  returns 0x00 (0000ms, 0940ms total)
T2038 002:304 JLINK_WriteReg(PSP, 0x20001000)  returns 0x00 (0000ms, 0940ms total)
T2038 002:304 JLINK_WriteReg(CFBP, 0x00000000)  returns 0x00 (0000ms, 0940ms total)
T2038 002:304 JLINK_SetBPEx(Addr = 0x20000000, Type = 0xFFFFFFF2)  returns 0x0000000D (0000ms, 0940ms total)
T2038 002:304 JLINK_Go() (0003ms, 0943ms total)
T2038 002:307 JLINK_IsHalted()  returns FALSE (0001ms, 0944ms total)
T2038 002:390 JLINK_IsHalted() -- CPU_ReadMem(2 bytes @ 0x20000000)  returns TRUE (0009ms, 0952ms total)
T2038 002:399 JLINK_ReadReg(R15 (PC))  returns 0x20000000 (0000ms, 0943ms total)
T2038 002:399 JLINK_ClrBPEx(BPHandle = 0x0000000D)  returns 0x00 (0000ms, 0943ms total)
T2038 002:399 JLINK_ReadReg(R0)  returns 0x00000000 (0000ms, 0943ms total)
T2038 002:399 JLINK_WriteMem(0x20000180, 0x0400 Bytes, ...) - Data: 84 F8 38 50 20 46 00 F0 23 F8 24 20 84 F8 39 00 ... -- CPU_WriteMem(1024 bytes @ 0x20000180)  returns 0x400 (0013ms, 0956ms total)
T2038 002:412 JLINK_WriteReg(R0, 0x08002000)  returns 0x00 (0000ms, 0956ms total)
T2038 002:412 JLINK_WriteReg(R1, 0x00000400)  returns 0x00 (0000ms, 0956ms total)
T2038 002:412 JLINK_WriteReg(R2, 0x20000180)  returns 0x00 (0000ms, 0956ms total)
T2038 002:412 JLINK_WriteReg(R3, 0x00000000)  returns 0x00 (0000ms, 0956ms total)
T2038 002:412 JLINK_WriteReg(R4, 0x00000000)  returns 0x00 (0000ms, 0956ms total)
T2038 002:412 JLINK_WriteReg(R5, 0x00000000)  returns 0x00 (0000ms, 0956ms total)
T2038 002:412 JLINK_WriteReg(R6, 0x00000000)  returns 0x00 (0000ms, 0956ms total)
T2038 002:412 JLINK_WriteReg(R7, 0x00000000)  returns 0x00 (0000ms, 0956ms total)
T2038 002:412 JLINK_WriteReg(R8, 0x00000000)  returns 0x00 (0000ms, 0956ms total)
T2038 002:412 JLINK_WriteReg(R9, 0x2000017C)  returns 0x00 (0000ms, 0956ms total)
T2038 002:412 JLINK_WriteReg(R10, 0x00000000)  returns 0x00 (0000ms, 0956ms total)
T2038 002:412 JLINK_WriteReg(R11, 0x00000000)  returns 0x00 (0000ms, 0956ms total)
T2038 002:412 JLINK_WriteReg(R12, 0x00000000)  returns 0x00 (0000ms, 0956ms total)
T2038 002:412 JLINK_WriteReg(R13 (SP), 0x20001000)  returns 0x00 (0000ms, 0956ms total)
T2038 002:412 JLINK_WriteReg(R14, 0x20000001)  returns 0x00 (0000ms, 0956ms total)
T2038 002:412 JLINK_WriteReg(R15 (PC), 0x20000108)  returns 0x00 (0000ms, 0956ms total)
T2038 002:412 JLINK_WriteReg(XPSR, 0x01000000)  returns 0x00 (0000ms, 0956ms total)
T2038 002:412 JLINK_WriteReg(MSP, 0x20001000)  returns 0x00 (0000ms, 0956ms total)
T2038 002:412 JLINK_WriteReg(PSP, 0x20001000)  returns 0x00 (0000ms, 0956ms total)
T2038 002:412 JLINK_WriteReg(CFBP, 0x00000000)  returns 0x00 (0000ms, 0956ms total)
T2038 002:412 JLINK_SetBPEx(Addr = 0x20000000, Type = 0xFFFFFFF2)  returns 0x0000000E (0000ms, 0956ms total)
T2038 002:412 JLINK_Go() (0003ms, 0959ms total)
T2038 002:415 JLINK_IsHalted()  returns FALSE (0001ms, 0960ms total)
T2038 002:492 JLINK_IsHalted() -- CPU_ReadMem(2 bytes @ 0x20000000)  returns TRUE (0008ms, 0967ms total)
T2038 002:500 JLINK_ReadReg(R15 (PC))  returns 0x20000000 (0000ms, 0959ms total)
T2038 002:500 JLINK_ClrBPEx(BPHandle = 0x0000000E)  returns 0x00 (0000ms, 0959ms total)
T2038 002:500 JLINK_ReadReg(R0)  returns 0x00000000 (0000ms, 0959ms total)
T2038 002:501 JLINK_WriteMem(0x20000180, 0x0400 Bytes, ...) - Data: 01 F0 46 F9 00 22 39 46 30 46 FF F7 B2 F8 64 00 ... -- CPU_WriteMem(1024 bytes @ 0x20000180)  returns 0x400 (0013ms, 0972ms total)
T2038 002:514 JLINK_WriteReg(R0, 0x08002400)  returns 0x00 (0000ms, 0972ms total)
T2038 002:514 JLINK_WriteReg(R1, 0x00000400)  returns 0x00 (0000ms, 0972ms total)
T2038 002:514 JLINK_WriteReg(R2, 0x20000180)  returns 0x00 (0000ms, 0972ms total)
T2038 002:514 JLINK_WriteReg(R3, 0x00000000)  returns 0x00 (0000ms, 0972ms total)
T2038 002:514 JLINK_WriteReg(R4, 0x00000000)  returns 0x00 (0000ms, 0972ms total)
T2038 002:514 JLINK_WriteReg(R5, 0x00000000)  returns 0x00 (0000ms, 0972ms total)
T2038 002:514 JLINK_WriteReg(R6, 0x00000000)  returns 0x00 (0000ms, 0972ms total)
T2038 002:514 JLINK_WriteReg(R7, 0x00000000)  returns 0x00 (0000ms, 0972ms total)
T2038 002:514 JLINK_WriteReg(R8, 0x00000000)  returns 0x00 (0000ms, 0972ms total)
T2038 002:514 JLINK_WriteReg(R9, 0x2000017C)  returns 0x00 (0000ms, 0972ms total)
T2038 002:514 JLINK_WriteReg(R10, 0x00000000)  returns 0x00 (0000ms, 0972ms total)
T2038 002:514 JLINK_WriteReg(R11, 0x00000000)  returns 0x00 (0000ms, 0972ms total)
T2038 002:514 JLINK_WriteReg(R12, 0x00000000)  returns 0x00 (0000ms, 0972ms total)
T2038 002:514 JLINK_WriteReg(R13 (SP), 0x20001000)  returns 0x00 (0000ms, 0972ms total)
T2038 002:514 JLINK_WriteReg(R14, 0x20000001)  returns 0x00 (0000ms, 0972ms total)
T2038 002:514 JLINK_WriteReg(R15 (PC), 0x20000108)  returns 0x00 (0000ms, 0972ms total)
T2038 002:514 JLINK_WriteReg(XPSR, 0x01000000)  returns 0x00 (0000ms, 0972ms total)
T2038 002:514 JLINK_WriteReg(MSP, 0x20001000)  returns 0x00 (0000ms, 0972ms total)
T2038 002:514 JLINK_WriteReg(PSP, 0x20001000)  returns 0x00 (0000ms, 0972ms total)
T2038 002:514 JLINK_WriteReg(CFBP, 0x00000000)  returns 0x00 (0000ms, 0972ms total)
T2038 002:514 JLINK_SetBPEx(Addr = 0x20000000, Type = 0xFFFFFFF2)  returns 0x0000000F (0000ms, 0972ms total)
T2038 002:514 JLINK_Go() (0003ms, 0975ms total)
T2038 002:517 JLINK_IsHalted()  returns FALSE (0001ms, 0976ms total)
T2038 002:594 JLINK_IsHalted() -- CPU_ReadMem(2 bytes @ 0x20000000)  returns TRUE (0009ms, 0984ms total)
T2038 002:603 JLINK_ReadReg(R15 (PC))  returns 0x20000000 (0000ms, 0975ms total)
T2038 002:603 JLINK_ClrBPEx(BPHandle = 0x0000000F)  returns 0x00 (0000ms, 0975ms total)
T2038 002:603 JLINK_ReadReg(R0)  returns 0x00000000 (0000ms, 0975ms total)
T2038 002:603 JLINK_WriteMem(0x20000180, 0x0400 Bytes, ...) - Data: 02 48 FF F7 7D BC 00 00 00 44 00 40 44 04 00 20 ... -- CPU_WriteMem(1024 bytes @ 0x20000180)  returns 0x400 (0013ms, 0988ms total)
T2038 002:616 JLINK_WriteReg(R0, 0x08002800)  returns 0x00 (0000ms, 0988ms total)
T2038 002:616 JLINK_WriteReg(R1, 0x00000400)  returns 0x00 (0000ms, 0988ms total)
T2038 002:616 JLINK_WriteReg(R2, 0x20000180)  returns 0x00 (0000ms, 0988ms total)
T2038 002:616 JLINK_WriteReg(R3, 0x00000000)  returns 0x00 (0000ms, 0988ms total)
T2038 002:616 JLINK_WriteReg(R4, 0x00000000)  returns 0x00 (0000ms, 0988ms total)
T2038 002:616 JLINK_WriteReg(R5, 0x00000000)  returns 0x00 (0000ms, 0988ms total)
T2038 002:616 JLINK_WriteReg(R6, 0x00000000)  returns 0x00 (0000ms, 0988ms total)
T2038 002:616 JLINK_WriteReg(R7, 0x00000000)  returns 0x00 (0000ms, 0988ms total)
T2038 002:616 JLINK_WriteReg(R8, 0x00000000)  returns 0x00 (0000ms, 0988ms total)
T2038 002:616 JLINK_WriteReg(R9, 0x2000017C)  returns 0x00 (0000ms, 0988ms total)
T2038 002:616 JLINK_WriteReg(R10, 0x00000000)  returns 0x00 (0000ms, 0988ms total)
T2038 002:616 JLINK_WriteReg(R11, 0x00000000)  returns 0x00 (0000ms, 0988ms total)
T2038 002:616 JLINK_WriteReg(R12, 0x00000000)  returns 0x00 (0000ms, 0988ms total)
T2038 002:616 JLINK_WriteReg(R13 (SP), 0x20001000)  returns 0x00 (0000ms, 0988ms total)
T2038 002:616 JLINK_WriteReg(R14, 0x20000001)  returns 0x00 (0000ms, 0988ms total)
T2038 002:616 JLINK_WriteReg(R15 (PC), 0x20000108)  returns 0x00 (0000ms, 0988ms total)
T2038 002:616 JLINK_WriteReg(XPSR, 0x01000000)  returns 0x00 (0000ms, 0988ms total)
T2038 002:616 JLINK_WriteReg(MSP, 0x20001000)  returns 0x00 (0000ms, 0988ms total)
T2038 002:616 JLINK_WriteReg(PSP, 0x20001000)  returns 0x00 (0000ms, 0988ms total)
T2038 002:616 JLINK_WriteReg(CFBP, 0x00000000)  returns 0x00 (0000ms, 0988ms total)
T2038 002:616 JLINK_SetBPEx(Addr = 0x20000000, Type = 0xFFFFFFF2)  returns 0x00000010 (0000ms, 0988ms total)
T2038 002:616 JLINK_Go() (0003ms, 0991ms total)
T2038 002:619 JLINK_IsHalted()  returns FALSE (0001ms, 0992ms total)
T2038 002:701 JLINK_IsHalted() -- CPU_ReadMem(2 bytes @ 0x20000000)  returns TRUE (0009ms, 1000ms total)
T2038 002:710 JLINK_ReadReg(R15 (PC))  returns 0x20000000 (0000ms, 0991ms total)
T2038 002:710 JLINK_ClrBPEx(BPHandle = 0x00000010)  returns 0x00 (0000ms, 0991ms total)
T2038 002:710 JLINK_ReadReg(R0)  returns 0x00000000 (0000ms, 0991ms total)
T2038 002:710 JLINK_WriteMem(0x20000180, 0x0400 Bytes, ...) - Data: 01 68 41 F0 01 01 01 60 0C 4A 00 21 08 32 11 60 ... -- CPU_WriteMem(1024 bytes @ 0x20000180)  returns 0x400 (0013ms, 1004ms total)
T2038 002:723 JLINK_WriteReg(R0, 0x08002C00)  returns 0x00 (0000ms, 1004ms total)
T2038 002:723 JLINK_WriteReg(R1, 0x00000400)  returns 0x00 (0000ms, 1004ms total)
T2038 002:723 JLINK_WriteReg(R2, 0x20000180)  returns 0x00 (0000ms, 1004ms total)
T2038 002:723 JLINK_WriteReg(R3, 0x00000000)  returns 0x00 (0000ms, 1004ms total)
T2038 002:723 JLINK_WriteReg(R4, 0x00000000)  returns 0x00 (0000ms, 1004ms total)
T2038 002:723 JLINK_WriteReg(R5, 0x00000000)  returns 0x00 (0000ms, 1004ms total)
